
T2F64 000:596 SEGGER J-Link V4.84c Log File (0001ms, 0263ms total)
T2F64 000:596 DLL Compiled: Apr 16 2014 18:53:07 (0001ms, 0263ms total)
T2F64 000:596 Logging started @ 2019-08-09 12:45 (0001ms, 0263ms total)
T2F64 000:597 JLINK_SetWarnOutHandler(...) (0000ms, 0263ms total)
T2F64 000:597 JLINK_OpenEx(...)
Firmware: J-Link ARM-OB STM32 compiled Aug 22 2012 19:52:04
Hardware: V7.00
S/N: 20090928
Feature(s): RDI,FlashDL,FlashBP,JFlash,GDBFull  returns O.K. (0264ms, 0527ms total)
T2F64 000:861 JLINK_SetErrorOutHandler(...) (0000ms, 0527ms total)
T2F64 000:861 JLINK_ExecCommand("ProjectFile = "D:\CAUCloud\大三下\电赛\ANO_PioneerPro_Ti-190807\JLinkSettings.ini"", ...)  returns 0x00 (0001ms, 0528ms total)
T2F64 000:862 JLINK_ExecCommand("Device = TM4C123GH6PM", ...)Device "TM4C123GH6PM" selected (256 KB flash, 32 KB RAM).  returns 0x00 (0001ms, 0529ms total)
T2F64 000:863 JLINK_ExecCommand("DisableConnectionTimeout", ...)  returns 0x01 (0000ms, 0529ms total)
T2F64 000:863 JLINK_GetHardwareVersion()  returns 0x11170 (0000ms, 0529ms total)
T2F64 000:863 JLINK_GetDLLVersion()  returns 48403 (0000ms, 0529ms total)
T2F64 000:863 JLINK_GetFirmwareString(...) (0000ms, 0529ms total)
T2F64 000:864 JLINK_GetDLLVersion()  returns 48403 (0000ms, 0529ms total)
T2F64 000:864 JLINK_GetCompileDateTime() (0000ms, 0529ms total)
T2F64 000:864 JLINK_GetFirmwareString(...) (0000ms, 0529ms total)
T2F64 000:864 JLINK_GetHardwareVersion()  returns 0x11170 (0000ms, 0529ms total)
T2F64 000:865 JLINK_TIF_Select(JLINKARM_TIF_SWD)  returns 0x00 (0000ms, 0529ms total)
T2F64 000:865 JLINK_SetSpeed(5000) (0000ms, 0529ms total)
T2F64 000:865 JLINK_GetId() >0x108 TIF>Found SWD-DP with ID 0x2BA01477 >0x0D TIF> >0x21 TIF> >0x0D TIF> >0x28 TIF> >0x0D TIF> >0x28 TIF> >0x0D TIF> >0x21 TIF> >0x0D TIF> >0x28 TIF> >0x0D TIF> >0x21 TIF> >0x0D TIF> >0x21 TIF> >0x0D TIF> >0x21 TIF> >0x0D TIF> >0x21 TIF> >0x0D TIF> >0x28 TIF> >0x0D TIF> >0x28 TIF> >0x0D TIF> >0x21 TIF> >0x0D TIF> >0x28 TIF> >0x0D TIF> >0x28 TIF> >0x0D TIF> >0x28 TIF> >0x0D TIF> >0x21 TIF> >0x0D TIF> >0x21 TIF> >0x0D TIF> >0x28 TIF> >0x0D TIF> >0x21 TIF> >0x0D TIF>
 >0x21 TIF>Found Cortex-M4 r0p1, Little endian. -- CPU_WriteMem(4 bytes @ 0xE0002000) -- CPU_ReadMem(4 bytes @ 0xE000EDF0) -- CPU_WriteMem(4 bytes @ 0xE000EDF0) -- CPU_ReadMem(4 bytes @ 0xE0002000)FPUnit: 6 code (BP) slots and 2 literal slots -- CPU_ReadMem(4 bytes @ 0xE000EDFC) -- CPU_WriteMem(4 bytes @ 0xE000EDFC) -- CPU_ReadMem(4 bytes @ 0xE0001000) -- CPU_WriteMem(4 bytes @ 0xE0001000) -- CPU_ReadMem(4 bytes @ 0xE00FF010)TPIU fitted. -- CPU_ReadMem(4 bytes @ 0xE00FF014)ETM fitted.
 -- CPU_ReadMem(4 bytes @ 0xE00FF018) -- CPU is running -- CPU_ReadMem(4 bytes @ 0x400FE0F0) >0x0D TIF> >0x21 TIF>  returns 0x2BA01477 (0017ms, 0546ms total)
T2F64 000:882 JLINK_GetDLLVersion()  returns 48403 (0000ms, 0546ms total)
T2F64 000:882 JLINK_CORE_GetFound()  returns 0xE0000FF (0000ms, 0546ms total)
T2F64 000:883 JLINK_GetDebugInfo(0x100) -- Value=0xE00FF003  returns 0x00 (0000ms, 0546ms total)
T2F64 000:883 JLINK_GetDebugInfo(0x101)  returns 0xFFFFFFFF (0000ms, 0546ms total)
T2F64 000:883 JLINK_ReadMem (0xE0041FF0, 0x0010 Bytes, ...) -- CPU is running -- CPU_ReadMem(16 bytes @ 0xE0041FF0) -- Data:  0D 00 00 00 90 00 00 00 05 00 00 00 B1 00 00 00  returns 0x00 (0001ms, 0547ms total)
T2F64 000:884 JLINK_GetDebugInfo(0x102)  returns 0xFFFFFFFF (0000ms, 0547ms total)
T2F64 000:884 JLINK_GetDebugInfo(0x103)  returns 0xFFFFFFFF (0000ms, 0547ms total)
T2F64 000:884 JLINK_ReadMem (0xE0040FF0, 0x0010 Bytes, ...) -- CPU is running -- CPU_ReadMem(16 bytes @ 0xE0040FF0) -- Data:  0D 00 00 00 90 00 00 00 05 00 00 00 B1 00 00 00  returns 0x00 (0000ms, 0547ms total)
T2F64 000:884 JLINK_GetDebugInfo(0x104)  returns 0xFFFFFFFF (0000ms, 0547ms total)
T2F64 000:884 JLINK_GetDebugInfo(0x105)  returns 0xFFFFFFFF (0001ms, 0548ms total)
T2F64 000:885 JLINK_GetDebugInfo(0x106)  returns 0xFFFFFFFF (0000ms, 0548ms total)
T2F64 000:885 JLINK_GetDebugInfo(0x107)  returns 0xFFFFFFFF (0000ms, 0548ms total)
T2F64 000:885 JLINK_GetDebugInfo(0x10C)  returns 0xFFFFFFFF (0000ms, 0548ms total)
T2F64 000:885 JLINK_ReadMemU32(0xE000EF40, 0x0001 Items, ...) -- CPU is running -- CPU_ReadMem(4 bytes @ 0xE000EF40) -- Data:  21 00 11 10  returns 0x01 (0000ms, 0548ms total)
T2F64 000:885 JLINK_ReadMemU32(0xE000EF44, 0x0001 Items, ...) -- CPU is running -- CPU_ReadMem(4 bytes @ 0xE000EF44) -- Data:  11 00 00 11  returns 0x01 (0001ms, 0549ms total)
T2F64 000:886 JLINK_ReadMemU32(0xE000ED00, 0x0001 Items, ...) -- CPU is running -- CPU_ReadMem(4 bytes @ 0xE000ED00) -- Data:  41 C2 0F 41  returns 0x01 (0000ms, 0549ms total)
T2F64 000:886 JLINK_SetResetType(JLINKARM_RESET_TYPE_NORMAL)  returns JLINKARM_RESET_TYPE_NORMAL (0000ms, 0549ms total)
T2F64 000:886 JLINK_Reset() -- CPU is running -- CPU_WriteMem(4 bytes @ 0xE000EDF0) -- CPU is running -- CPU_WriteMem(4 bytes @ 0xE000EDFC) >0x35 TIF> -- CPU is running -- CPU_WriteMem(4 bytes @ 0xE000ED0C) -- CPU is running -- CPU_ReadMem(4 bytes @ 0xE000EDF0) -- CPU is running -- CPU_ReadMem(4 bytes @ 0xE000EDF0) -- CPU is running -- CPU_WriteMem(4 bytes @ 0xE000EDF0) -- CPU is running -- CPU_WriteMem(4 bytes @ 0xE000EDFC) -- CPU is running -- CPU_ReadMem(4 bytes @ 0xE000EDF0)
 -- CPU_ReadMem(4 bytes @ 0x400FE0F0) -- CPU_WriteMem(4 bytes @ 0xE0002000) -- CPU_ReadMem(4 bytes @ 0xE000EDFC) -- CPU_ReadMem(4 bytes @ 0xE0001000) (0018ms, 0567ms total)
T2F64 000:904 JLINK_ReadReg(R15 (PC))  returns 0x000002A8 (0000ms, 0567ms total)
T2F64 000:904 JLINK_ReadReg(XPSR)  returns 0x01000000 (0000ms, 0567ms total)
T2F64 000:904 JLINK_Halt()  returns 0x00 (0000ms, 0567ms total)
T2F64 000:904 JLINK_IsHalted()  returns TRUE (0000ms, 0567ms total)
T2F64 000:904 JLINK_ReadMemU32(0xE000EDF0, 0x0001 Items, ...) -- CPU_ReadMem(4 bytes @ 0xE000EDF0) -- Data:  03 00 03 00  returns 0x01 (0001ms, 0568ms total)
T2F64 000:905 JLINK_WriteU32(0xE000EDF0, 0xA05F0003) -- CPU_WriteMem(4 bytes @ 0xE000EDF0)  returns 0x00 (0000ms, 0568ms total)
T2F64 000:905 JLINK_WriteU32(0xE000EDFC, 0x01000000) -- CPU_WriteMem(4 bytes @ 0xE000EDFC)  returns 0x00 (0001ms, 0569ms total)
T2F64 000:909 JLINK_GetHWStatus(...)  returns 0x00 (0000ms, 0569ms total)
T2F64 000:910 JLINK_GetNumBPUnits(Type = 0xFFFFFF00)  returns 0x06 (0000ms, 0569ms total)
T2F64 000:910 JLINK_GetNumBPUnits(Type = 0xF0)  returns 0x2000 (0000ms, 0569ms total)
T2F64 000:910 JLINK_GetNumWPUnits()  returns 0x04 (0000ms, 0569ms total)
T2F64 000:910 JLINK_GetSpeed()  returns 0xFA0 (0000ms, 0569ms total)
T2F64 000:910 JLINK_ReadMemU32(0xE000E004, 0x0001 Items, ...) -- CPU_ReadMem(4 bytes @ 0xE000E004) -- Data:  04 00 00 00  returns 0x01 (0001ms, 0570ms total)
T2F64 000:911 JLINK_ReadMemU32(0xE000E004, 0x0001 Items, ...) -- CPU_ReadMem(4 bytes @ 0xE000E004) -- Data:  04 00 00 00  returns 0x01 (0000ms, 0570ms total)
T2F64 000:911 JLINK_WriteMem(0xE0001000, 0x001C Bytes, ...) -- Data:  01 00 00 00 00 00 00 00 00 00 00 00 00 00 00 00 ... -- CPU_WriteMem(28 bytes @ 0xE0001000)  returns 0x1C (0001ms, 0571ms total)
T2F64 000:912 JLINK_ReadMem (0xE0001000, 0x001C Bytes, ...) -- CPU_ReadMem(28 bytes @ 0xE0001000) -- Data:  01 00 00 40 00 00 00 00 00 00 00 00 00 00 00 00 ...  returns 0x00 (0001ms, 0572ms total)
T2F64 000:913 JLINK_ReadReg(R15 (PC))  returns 0x000002A8 (0000ms, 0572ms total)
T2F64 000:913 JLINK_ReadReg(XPSR)  returns 0x01000000 (0000ms, 0572ms total)
T2F64 001:015 JLINK_SetResetType(JLINKARM_RESET_TYPE_NORMAL)  returns JLINKARM_RESET_TYPE_NORMAL (0000ms, 0572ms total)
T2F64 001:015 JLINK_Reset() -- CPU_WriteMem(4 bytes @ 0xE000EDF0) -- CPU_WriteMem(4 bytes @ 0xE000EDFC) >0x35 TIF> -- CPU_WriteMem(4 bytes @ 0xE000ED0C) -- CPU_ReadMem(4 bytes @ 0xE000EDF0) -- CPU_ReadMem(4 bytes @ 0xE000EDF0) -- CPU_WriteMem(4 bytes @ 0xE000EDF0) -- CPU_WriteMem(4 bytes @ 0xE000EDFC) -- CPU is running -- CPU_ReadMem(4 bytes @ 0xE000EDF0) -- CPU_ReadMem(4 bytes @ 0x400FE0F0) -- CPU_WriteMem(4 bytes @ 0xE0002000) -- CPU_ReadMem(4 bytes @ 0xE000EDFC) -- CPU_ReadMem(4 bytes @ 0xE0001000)
 (0018ms, 0590ms total)
T2F64 001:033 JLINK_ReadReg(R15 (PC))  returns 0x000002A8 (0000ms, 0590ms total)
T2F64 001:033 JLINK_ReadReg(XPSR)  returns 0x01000000 (0000ms, 0590ms total)
T2F64 001:034 JLINK_ReadMem (0x000002A8, 0x003C Bytes, ...) -- CPU_ReadMem(128 bytes @ 0x00000280) -- Updating C cache (128 bytes @ 0x00000280) -- Read from C cache (60 bytes @ 0x000002A8) -- Data:  3C 48 80 47 3C 48 00 47 FE E7 FE E7 FE E7 FE E7 ...  returns 0x00 (0001ms, 0591ms total)
T2F64 003:226 JLINK_ReadMem (0x20001DC5, 0x000E Bytes, ...) -- CPU_ReadMem(64 bytes @ 0x20001DC0) -- Updating C cache (64 bytes @ 0x20001DC0) -- Read from C cache (14 bytes @ 0x20001DC5) -- Data:  00 00 00 00 00 00 00 00 00 00 00 00 00 00  returns 0x00 (0002ms, 0593ms total)
T2F64 003:238 JLINK_ReadMem (0x2000021C, 0x0004 Bytes, ...) -- CPU_ReadMem(64 bytes @ 0x20000200) -- Updating C cache (64 bytes @ 0x20000200) -- Read from C cache (4 bytes @ 0x2000021C) -- Data:  00 00 00 00  returns 0x00 (0001ms, 0594ms total)
T2F64 003:248 JLINK_ReadMem (0x200001F4, 0x0001 Bytes, ...) -- CPU_ReadMem(64 bytes @ 0x200001C0) -- Updating C cache (64 bytes @ 0x200001C0) -- Read from C cache (1 bytes @ 0x200001F4) -- Data:  00  returns 0x00 (0002ms, 0596ms total)
T2F64 003:260 JLINK_ReadMem (0x200001F5, 0x0001 Bytes, ...) -- Read from C cache (1 bytes @ 0x200001F5) -- Data:  00  returns 0x00 (0000ms, 0596ms total)
T2F64 003:407 JLINK_ReadMem (0x200019C5, 0x0020 Bytes, ...) -- CPU_ReadMem(64 bytes @ 0x200019C0) -- Updating C cache (64 bytes @ 0x200019C0) -- Read from C cache (32 bytes @ 0x200019C5) -- Data:  00 00 00 00 00 00 00 00 00 00 00 00 00 00 00 00 ...  returns 0x00 (0002ms, 0598ms total)
T2F64 003:584 JLINK_ReadMem (0x200002B6, 0x0002 Bytes, ...) -- CPU_ReadMem(64 bytes @ 0x20000280) -- Updating C cache (64 bytes @ 0x20000280) -- Read from C cache (2 bytes @ 0x200002B6) -- Data:  00 00  returns 0x00 (0001ms, 0599ms total)
T2F64 003:615 JLINK_ReadMem (0x200001D8, 0x0001 Bytes, ...) -- Read from C cache (1 bytes @ 0x200001D8) -- Data:  00  returns 0x00 (0000ms, 0599ms total)
T2F64 003:633 JLINK_ReadMem (0x20002164, 0x0014 Bytes, ...) -- CPU_ReadMem(64 bytes @ 0x20002140) -- Updating C cache (64 bytes @ 0x20002140) -- Read from C cache (20 bytes @ 0x20002164) -- Data:  00 00 00 00 00 00 00 00 00 00 00 00 00 00 00 00 ...  returns 0x00 (0001ms, 0600ms total)
T2F64 003:636 JLINK_ReadMem (0x200002A4, 0x0002 Bytes, ...) -- Read from C cache (2 bytes @ 0x200002A4) -- Data:  00 00  returns 0x00 (0000ms, 0600ms total)
T2F64 003:647 JLINK_ReadMem (0x200004C2, 0x0002 Bytes, ...) -- CPU_ReadMem(64 bytes @ 0x200004C0) -- Updating C cache (64 bytes @ 0x200004C0) -- Read from C cache (2 bytes @ 0x200004C2) -- Data:  00 00  returns 0x00 (0002ms, 0602ms total)
T2F64 003:651 JLINK_ReadMem (0x200002C3, 0x0001 Bytes, ...) -- CPU_ReadMem(64 bytes @ 0x200002C0) -- Updating C cache (64 bytes @ 0x200002C0) -- Read from C cache (1 bytes @ 0x200002C3) -- Data:  00  returns 0x00 (0002ms, 0604ms total)
T2F64 003:658 JLINK_ReadMem (0x200000F8, 0x0001 Bytes, ...) -- CPU_ReadMem(64 bytes @ 0x200000C0) -- Updating C cache (64 bytes @ 0x200000C0) -- Read from C cache (1 bytes @ 0x200000F8) -- Data:  00  returns 0x00 (0001ms, 0605ms total)
T3068 003:731 JLINK_SetBPEx(Addr = 0x0000F13C, Type = 0xFFFFFFF2)  returns 0x00000001 (0000ms, 0605ms total)
T3068 003:731 JLINK_SetBPEx(Addr = 0x00004A12, Type = 0xFFFFFFF2)  returns 0x00000002 (0000ms, 0605ms total)
T3068 003:731 JLINK_Go() -- CPU_WriteMem(4 bytes @ 0xE0002000) -- CPU_WriteMem(4 bytes @ 0xE0002008) -- CPU_WriteMem(4 bytes @ 0xE0002000) -- CPU_WriteMem(4 bytes @ 0xE000200C) -- CPU_WriteMem(4 bytes @ 0xE0002010) -- CPU_WriteMem(4 bytes @ 0xE0002014) -- CPU_WriteMem(4 bytes @ 0xE0002018) -- CPU_WriteMem(4 bytes @ 0xE000201C) -- CPU_WriteMem(4 bytes @ 0xE0001004) (0005ms, 0610ms total)
T3068 003:838 JLINK_IsHalted()  returns TRUE (0006ms, 0616ms total)
T3068 003:844 JLINK_Halt()  returns 0x00 (0000ms, 0610ms total)
T3068 003:844 JLINK_IsHalted()  returns TRUE (0000ms, 0610ms total)
T3068 003:844 JLINK_IsHalted()  returns TRUE (0000ms, 0610ms total)
T3068 003:844 JLINK_IsHalted()  returns TRUE (0000ms, 0610ms total)
T3068 003:844 JLINK_ReadReg(R15 (PC))  returns 0x0000F13C (0000ms, 0610ms total)
T3068 003:844 JLINK_ReadReg(XPSR)  returns 0x61000000 (0000ms, 0610ms total)
T3068 003:844 JLINK_ClrBPEx(BPHandle = 0x00000001)  returns 0x00 (0000ms, 0610ms total)
T3068 003:844 JLINK_ClrBPEx(BPHandle = 0x00000002)  returns 0x00 (0000ms, 0610ms total)
T3068 003:844 JLINK_ReadMemU32(0xE000ED30, 0x0001 Items, ...) -- CPU_ReadMem(4 bytes @ 0xE000ED30) -- Data:  03 00 00 00  returns 0x01 (0001ms, 0611ms total)
T3068 003:845 JLINK_ReadMemU32(0xE0001028, 0x0001 Items, ...) -- CPU_ReadMem(4 bytes @ 0xE0001028) -- Data:  00 00 00 00  returns 0x01 (0003ms, 0614ms total)
T3068 003:848 JLINK_ReadMemU32(0xE0001038, 0x0001 Items, ...) -- CPU_ReadMem(4 bytes @ 0xE0001038) -- Data:  00 02 00 00  returns 0x01 (0000ms, 0614ms total)
T3068 003:849 JLINK_ReadMemU32(0xE0001048, 0x0001 Items, ...) -- CPU_ReadMem(4 bytes @ 0xE0001048) -- Data:  00 00 00 00  returns 0x01 (0000ms, 0614ms total)
T3068 003:849 JLINK_ReadMemU32(0xE0001058, 0x0001 Items, ...) -- CPU_ReadMem(4 bytes @ 0xE0001058) -- Data:  00 00 00 00  returns 0x01 (0001ms, 0615ms total)
T3068 003:850 JLINK_ReadReg(R0)  returns 0x0000F13D (0000ms, 0615ms total)
T3068 003:850 JLINK_ReadReg(R1)  returns 0x20003410 (0000ms, 0615ms total)
T3068 003:850 JLINK_ReadReg(R2)  returns 0x00000000 (0000ms, 0615ms total)
T3068 003:850 JLINK_ReadReg(R3)  returns 0x0000E409 (0000ms, 0615ms total)
T3068 003:850 JLINK_ReadReg(R4)  returns 0x000112E4 (0000ms, 0615ms total)
T3068 003:850 JLINK_ReadReg(R5)  returns 0x000112E4 (0000ms, 0615ms total)
T3068 003:850 JLINK_ReadReg(R6)  returns 0x00000000 (0000ms, 0615ms total)
T3068 003:850 JLINK_ReadReg(R7)  returns 0x00000000 (0000ms, 0615ms total)
T3068 003:850 JLINK_ReadReg(R8)  returns 0x00000000 (0000ms, 0615ms total)
T3068 003:850 JLINK_ReadReg(R9)  returns 0x00000000 (0000ms, 0615ms total)
T3068 003:850 JLINK_ReadReg(R10)  returns 0x00000000 (0000ms, 0615ms total)
T3068 003:850 JLINK_ReadReg(R11)  returns 0x00000000 (0000ms, 0615ms total)
T3068 003:850 JLINK_ReadReg(R12)  returns 0x00000000 (0000ms, 0615ms total)
T3068 003:850 JLINK_ReadReg(R13 (SP))  returns 0x20003410 (0000ms, 0615ms total)
T3068 003:850 JLINK_ReadReg(R14)  returns 0x00000959 (0000ms, 0615ms total)
T3068 003:850 JLINK_ReadReg(R15 (PC))  returns 0x0000F13C (0000ms, 0615ms total)
T3068 003:850 JLINK_ReadReg(XPSR)  returns 0x61000000 (0000ms, 0615ms total)
T3068 003:850 JLINK_ReadReg(MSP)  returns 0x20003410 (0000ms, 0615ms total)
T3068 003:850 JLINK_ReadReg(PSP)  returns 0x00000000 (0000ms, 0615ms total)
T3068 003:850 JLINK_ReadReg(CFBP)  returns 0x00000000 (0001ms, 0616ms total)
T3068 003:851 JLINK_ReadReg(FPSCR)  returns 0x00000000 (0004ms, 0620ms total)
T3068 003:855 JLINK_ReadReg(FPS0)  returns 0x00000000 (0001ms, 0621ms total)
T3068 003:856 JLINK_ReadReg(FPS1)  returns 0x00000000 (0000ms, 0621ms total)
T3068 003:856 JLINK_ReadReg(FPS2)  returns 0x00000000 (0000ms, 0621ms total)
T3068 003:856 JLINK_ReadReg(FPS3)  returns 0x00000000 (0000ms, 0621ms total)
T3068 003:856 JLINK_ReadReg(FPS4)  returns 0x00000000 (0000ms, 0621ms total)
T3068 003:856 JLINK_ReadReg(FPS5)  returns 0x00000000 (0000ms, 0621ms total)
T3068 003:856 JLINK_ReadReg(FPS6)  returns 0x00000000 (0000ms, 0621ms total)
T3068 003:856 JLINK_ReadReg(FPS7)  returns 0x00000000 (0000ms, 0621ms total)
T3068 003:856 JLINK_ReadReg(FPS8)  returns 0x00000000 (0000ms, 0621ms total)
T3068 003:856 JLINK_ReadReg(FPS9)  returns 0x00000000 (0000ms, 0621ms total)
T3068 003:856 JLINK_ReadReg(FPS10)  returns 0x00000000 (0000ms, 0621ms total)
T3068 003:856 JLINK_ReadReg(FPS11)  returns 0x00000000 (0000ms, 0621ms total)
T3068 003:856 JLINK_ReadReg(FPS12)  returns 0x00000000 (0000ms, 0621ms total)
T3068 003:856 JLINK_ReadReg(FPS13)  returns 0x00000000 (0000ms, 0621ms total)
T3068 003:856 JLINK_ReadReg(FPS14)  returns 0x00000000 (0000ms, 0621ms total)
T3068 003:856 JLINK_ReadReg(FPS15)  returns 0x00000000 (0000ms, 0621ms total)
T3068 003:856 JLINK_ReadReg(FPS16)  returns 0x00000000 (0000ms, 0621ms total)
T3068 003:856 JLINK_ReadReg(FPS17)  returns 0x00000000 (0000ms, 0621ms total)
T3068 003:856 JLINK_ReadReg(FPS18)  returns 0x00000000 (0000ms, 0621ms total)
T3068 003:856 JLINK_ReadReg(FPS19)  returns 0x00000000 (0000ms, 0621ms total)
T3068 003:856 JLINK_ReadReg(FPS20)  returns 0x00000000 (0000ms, 0621ms total)
T3068 003:857 JLINK_ReadReg(FPS21)  returns 0x00000000 (0000ms, 0621ms total)
T3068 003:857 JLINK_ReadReg(FPS22)  returns 0x00000000 (0000ms, 0621ms total)
T3068 003:857 JLINK_ReadReg(FPS23)  returns 0x00000000 (0000ms, 0621ms total)
T3068 003:857 JLINK_ReadReg(FPS24)  returns 0x00000000 (0000ms, 0621ms total)
T3068 003:857 JLINK_ReadReg(FPS25)  returns 0x00000000 (0000ms, 0621ms total)
T3068 003:857 JLINK_ReadReg(FPS26)  returns 0x00000000 (0000ms, 0621ms total)
T3068 003:857 JLINK_ReadReg(FPS27)  returns 0x00000000 (0000ms, 0621ms total)
T3068 003:857 JLINK_ReadReg(FPS28)  returns 0x00000000 (0000ms, 0621ms total)
T3068 003:857 JLINK_ReadReg(FPS29)  returns 0x00000000 (0000ms, 0621ms total)
T3068 003:857 JLINK_ReadReg(FPS30)  returns 0x00000000 (0000ms, 0621ms total)
T3068 003:857 JLINK_ReadReg(FPS31)  returns 0x00000000 (0000ms, 0621ms total)
T2F64 003:862 JLINK_ReadMem (0x20001DC5, 0x000E Bytes, ...) -- CPU_ReadMem(64 bytes @ 0x20001DC0) -- Updating C cache (64 bytes @ 0x20001DC0) -- Read from C cache (14 bytes @ 0x20001DC5) -- Data:  00 00 00 00 00 00 00 00 00 00 00 00 00 00  returns 0x00 (0002ms, 0623ms total)
T2F64 003:864 JLINK_ReadMem (0x2000021C, 0x0004 Bytes, ...) -- CPU_ReadMem(64 bytes @ 0x20000200) -- Updating C cache (64 bytes @ 0x20000200) -- Read from C cache (4 bytes @ 0x2000021C) -- Data:  00 00 00 00  returns 0x00 (0001ms, 0624ms total)
T2F64 003:865 JLINK_ReadMem (0x200001F4, 0x0001 Bytes, ...) -- CPU_ReadMem(64 bytes @ 0x200001C0) -- Updating C cache (64 bytes @ 0x200001C0) -- Read from C cache (1 bytes @ 0x200001F4) -- Data:  00  returns 0x00 (0001ms, 0625ms total)
T2F64 003:866 JLINK_ReadMem (0x200001F5, 0x0001 Bytes, ...) -- Read from C cache (1 bytes @ 0x200001F5) -- Data:  00  returns 0x00 (0000ms, 0625ms total)
T2F64 003:868 JLINK_ReadMem (0x200019C5, 0x0020 Bytes, ...) -- CPU_ReadMem(64 bytes @ 0x200019C0) -- Updating C cache (64 bytes @ 0x200019C0) -- Read from C cache (32 bytes @ 0x200019C5) -- Data:  00 00 00 00 00 00 00 00 00 00 00 00 00 00 00 00 ...  returns 0x00 (0001ms, 0626ms total)
T2F64 003:869 JLINK_ReadMem (0x200002B6, 0x0002 Bytes, ...) -- CPU_ReadMem(64 bytes @ 0x20000280) -- Updating C cache (64 bytes @ 0x20000280) -- Read from C cache (2 bytes @ 0x200002B6) -- Data:  00 00  returns 0x00 (0001ms, 0627ms total)
T2F64 003:870 JLINK_ReadMem (0x200001D8, 0x0001 Bytes, ...) -- Read from C cache (1 bytes @ 0x200001D8) -- Data:  00  returns 0x00 (0000ms, 0627ms total)
T2F64 003:873 JLINK_ReadMem (0x0000F13C, 0x003C Bytes, ...) -- CPU_ReadMem(128 bytes @ 0x0000F100) -- Updating C cache (128 bytes @ 0x0000F100) -- Read from C cache (60 bytes @ 0x0000F13C) -- Data:  F5 F7 1A FC 01 20 03 49 08 70 01 E0 FA F7 4E FD ...  returns 0x00 (0002ms, 0629ms total)
T3068 005:833 JLINK_SetBPEx(Addr = 0x00004A12, Type = 0xFFFFFFF2)  returns 0x00000003 (0001ms, 0630ms total)
T3068 005:834 JLINK_Go() -- CPU_WriteMem(4 bytes @ 0xE0002000) -- CPU_WriteMem(4 bytes @ 0xE0002008) -- CPU_WriteMem(4 bytes @ 0xE000200C) (0002ms, 0632ms total)
T3068 005:937 JLINK_IsHalted()  returns FALSE (0000ms, 0632ms total)
T3068 006:037 JLINK_IsHalted()  returns FALSE (0000ms, 0632ms total)
T3068 006:139 JLINK_IsHalted()  returns TRUE (0003ms, 0635ms total)
T3068 006:142 JLINK_Halt()  returns 0x00 (0000ms, 0632ms total)
T3068 006:142 JLINK_IsHalted()  returns TRUE (0000ms, 0632ms total)
T3068 006:142 JLINK_IsHalted()  returns TRUE (0000ms, 0632ms total)
T3068 006:142 JLINK_IsHalted()  returns TRUE (0000ms, 0632ms total)
T3068 006:142 JLINK_ReadReg(R15 (PC))  returns 0x00004A12 (0000ms, 0632ms total)
T3068 006:142 JLINK_ReadReg(XPSR)  returns 0x01000000 (0000ms, 0632ms total)
T3068 006:142 JLINK_ClrBPEx(BPHandle = 0x00000003)  returns 0x00 (0000ms, 0632ms total)
T3068 006:142 JLINK_ReadMemU32(0xE000ED30, 0x0001 Items, ...) -- CPU_ReadMem(4 bytes @ 0xE000ED30) -- Data:  03 00 00 00  returns 0x01 (0001ms, 0633ms total)
T3068 006:143 JLINK_ReadMemU32(0xE0001028, 0x0001 Items, ...) -- CPU_ReadMem(4 bytes @ 0xE0001028) -- Data:  00 00 00 00  returns 0x01 (0000ms, 0633ms total)
T3068 006:144 JLINK_ReadMemU32(0xE0001038, 0x0001 Items, ...) -- CPU_ReadMem(4 bytes @ 0xE0001038) -- Data:  00 02 00 00  returns 0x01 (0000ms, 0633ms total)
T3068 006:144 JLINK_ReadMemU32(0xE0001048, 0x0001 Items, ...) -- CPU_ReadMem(4 bytes @ 0xE0001048) -- Data:  00 00 00 00  returns 0x01 (0001ms, 0634ms total)
T3068 006:145 JLINK_ReadMemU32(0xE0001058, 0x0001 Items, ...) -- CPU_ReadMem(4 bytes @ 0xE0001058) -- Data:  00 00 00 00  returns 0x01 (0000ms, 0634ms total)
T3068 006:145 JLINK_ReadReg(R0)  returns 0x4000E000 (0000ms, 0634ms total)
T3068 006:145 JLINK_ReadReg(R1)  returns 0x00000070 (0000ms, 0634ms total)
T3068 006:145 JLINK_ReadReg(R2)  returns 0x00000000 (0000ms, 0634ms total)
T3068 006:145 JLINK_ReadReg(R3)  returns 0x00000000 (0000ms, 0634ms total)
T3068 006:145 JLINK_ReadReg(R4)  returns 0x000112E4 (0000ms, 0634ms total)
T3068 006:146 JLINK_ReadReg(R5)  returns 0x000112E4 (0000ms, 0635ms total)
T3068 006:146 JLINK_ReadReg(R6)  returns 0x00000000 (0000ms, 0635ms total)
T3068 006:146 JLINK_ReadReg(R7)  returns 0x00000000 (0000ms, 0635ms total)
T3068 006:146 JLINK_ReadReg(R8)  returns 0x00000000 (0000ms, 0635ms total)
T3068 006:146 JLINK_ReadReg(R9)  returns 0x00000000 (0000ms, 0635ms total)
T3068 006:146 JLINK_ReadReg(R10)  returns 0x00000000 (0000ms, 0635ms total)
T3068 006:146 JLINK_ReadReg(R11)  returns 0x00000000 (0000ms, 0635ms total)
T3068 006:146 JLINK_ReadReg(R12)  returns 0x0000FF00 (0000ms, 0635ms total)
T3068 006:146 JLINK_ReadReg(R13 (SP))  returns 0x20003408 (0000ms, 0635ms total)
T3068 006:146 JLINK_ReadReg(R14)  returns 0x00005BFD (0000ms, 0635ms total)
T3068 006:146 JLINK_ReadReg(R15 (PC))  returns 0x00004A12 (0000ms, 0635ms total)
T3068 006:146 JLINK_ReadReg(XPSR)  returns 0x01000000 (0000ms, 0635ms total)
T3068 006:146 JLINK_ReadReg(MSP)  returns 0x20003408 (0000ms, 0635ms total)
T3068 006:146 JLINK_ReadReg(PSP)  returns 0x00000000 (0000ms, 0635ms total)
T3068 006:146 JLINK_ReadReg(CFBP)  returns 0x04000000 (0000ms, 0635ms total)
T3068 006:146 JLINK_ReadReg(FPSCR)  returns 0x00000000 (0005ms, 0640ms total)
T3068 006:151 JLINK_ReadReg(FPS0)  returns 0x000004E2 (0000ms, 0640ms total)
T3068 006:151 JLINK_ReadReg(FPS1)  returns 0x00000000 (0000ms, 0640ms total)
T3068 006:151 JLINK_ReadReg(FPS2)  returns 0x3FA00000 (0000ms, 0640ms total)
T3068 006:151 JLINK_ReadReg(FPS3)  returns 0x00000000 (0000ms, 0640ms total)
T3068 006:151 JLINK_ReadReg(FPS4)  returns 0x00000000 (0000ms, 0640ms total)
T3068 006:151 JLINK_ReadReg(FPS5)  returns 0x00000000 (0000ms, 0640ms total)
T3068 006:151 JLINK_ReadReg(FPS6)  returns 0x00000000 (0000ms, 0640ms total)
T3068 006:151 JLINK_ReadReg(FPS7)  returns 0x00000000 (0000ms, 0640ms total)
T3068 006:151 JLINK_ReadReg(FPS8)  returns 0x00000000 (0000ms, 0640ms total)
T3068 006:151 JLINK_ReadReg(FPS9)  returns 0x00000000 (0000ms, 0640ms total)
T3068 006:151 JLINK_ReadReg(FPS10)  returns 0x00000000 (0000ms, 0640ms total)
T3068 006:151 JLINK_ReadReg(FPS11)  returns 0x00000000 (0000ms, 0640ms total)
T3068 006:151 JLINK_ReadReg(FPS12)  returns 0x00000000 (0000ms, 0640ms total)
T3068 006:151 JLINK_ReadReg(FPS13)  returns 0x00000000 (0000ms, 0640ms total)
T3068 006:151 JLINK_ReadReg(FPS14)  returns 0x00000000 (0000ms, 0640ms total)
T3068 006:151 JLINK_ReadReg(FPS15)  returns 0x00000000 (0000ms, 0640ms total)
T3068 006:151 JLINK_ReadReg(FPS16)  returns 0x00000000 (0000ms, 0640ms total)
T3068 006:151 JLINK_ReadReg(FPS17)  returns 0x00000000 (0001ms, 0641ms total)
T3068 006:152 JLINK_ReadReg(FPS18)  returns 0x00000000 (0000ms, 0641ms total)
T3068 006:152 JLINK_ReadReg(FPS19)  returns 0x00000000 (0000ms, 0641ms total)
T3068 006:152 JLINK_ReadReg(FPS20)  returns 0x00000000 (0000ms, 0641ms total)
T3068 006:152 JLINK_ReadReg(FPS21)  returns 0x00000000 (0000ms, 0641ms total)
T3068 006:152 JLINK_ReadReg(FPS22)  returns 0x00000000 (0000ms, 0641ms total)
T3068 006:152 JLINK_ReadReg(FPS23)  returns 0x00000000 (0000ms, 0641ms total)
T3068 006:152 JLINK_ReadReg(FPS24)  returns 0x00000000 (0000ms, 0641ms total)
T3068 006:152 JLINK_ReadReg(FPS25)  returns 0x00000000 (0000ms, 0641ms total)
T3068 006:152 JLINK_ReadReg(FPS26)  returns 0x00000000 (0000ms, 0641ms total)
T3068 006:152 JLINK_ReadReg(FPS27)  returns 0x00000000 (0000ms, 0641ms total)
T3068 006:152 JLINK_ReadReg(FPS28)  returns 0x00000000 (0000ms, 0641ms total)
T3068 006:152 JLINK_ReadReg(FPS29)  returns 0x00000000 (0000ms, 0641ms total)
T3068 006:152 JLINK_ReadReg(FPS30)  returns 0x00000000 (0000ms, 0641ms total)
T3068 006:152 JLINK_ReadReg(FPS31)  returns 0x00000000 (0000ms, 0641ms total)
T2F64 006:155 JLINK_ReadMem (0x20001DC5, 0x000E Bytes, ...) -- CPU_ReadMem(64 bytes @ 0x20001DC0) -- Updating C cache (64 bytes @ 0x20001DC0) -- Read from C cache (14 bytes @ 0x20001DC5) -- Data:  00 00 00 00 00 00 00 00 00 00 00 00 00 00  returns 0x00 (0002ms, 0643ms total)
T2F64 006:157 JLINK_ReadMem (0x2000021C, 0x0004 Bytes, ...) -- CPU_ReadMem(64 bytes @ 0x20000200) -- Updating C cache (64 bytes @ 0x20000200) -- Read from C cache (4 bytes @ 0x2000021C) -- Data:  00 00 00 00  returns 0x00 (0001ms, 0644ms total)
T2F64 006:158 JLINK_ReadMem (0x200001F4, 0x0001 Bytes, ...) -- CPU_ReadMem(64 bytes @ 0x200001C0) -- Updating C cache (64 bytes @ 0x200001C0) -- Read from C cache (1 bytes @ 0x200001F4) -- Data:  00  returns 0x00 (0001ms, 0645ms total)
T2F64 006:159 JLINK_ReadMem (0x200001F5, 0x0001 Bytes, ...) -- Read from C cache (1 bytes @ 0x200001F5) -- Data:  00  returns 0x00 (0000ms, 0645ms total)
T2F64 006:160 JLINK_ReadMem (0x200019C5, 0x0020 Bytes, ...) -- CPU_ReadMem(64 bytes @ 0x200019C0) -- Updating C cache (64 bytes @ 0x200019C0) -- Read from C cache (32 bytes @ 0x200019C5) -- Data:  00 00 00 00 00 00 00 00 00 00 00 00 00 00 00 00 ...  returns 0x00 (0002ms, 0647ms total)
T2F64 006:162 JLINK_ReadMem (0x200002B6, 0x0002 Bytes, ...) -- CPU_ReadMem(64 bytes @ 0x20000280) -- Updating C cache (64 bytes @ 0x20000280) -- Read from C cache (2 bytes @ 0x200002B6) -- Data:  00 00  returns 0x00 (0001ms, 0648ms total)
T2F64 006:163 JLINK_ReadMem (0x200001D8, 0x0001 Bytes, ...) -- Read from C cache (1 bytes @ 0x200001D8) -- Data:  00  returns 0x00 (0000ms, 0648ms total)
T2F64 006:168 JLINK_ReadMem (0x00004A12, 0x0002 Bytes, ...) -- CPU_ReadMem(64 bytes @ 0x00004A00) -- Updating C cache (64 bytes @ 0x00004A00) -- Read from C cache (2 bytes @ 0x00004A12) -- Data:  00 F0  returns 0x00 (0001ms, 0649ms total)
T2F64 006:169 JLINK_ReadMem (0x00004A14, 0x003C Bytes, ...) -- CPU_ReadMem(64 bytes @ 0x00004A40) -- Updating C cache (64 bytes @ 0x00004A40) -- Read from C cache (60 bytes @ 0x00004A14) -- Data:  F5 F9 08 B9 00 20 00 E0 02 20 0D 49 08 70 08 46 ...  returns 0x00 (0001ms, 0650ms total)
T3068 009:332 JLINK_Step() -- Read from C cache (2 bytes @ 0x00004A12) -- CPU_ReadMem(4 bytes @ 0xE0001004) -- Read from C cache (2 bytes @ 0x00004A14) -- Simulated  returns 0x00 (0001ms, 0651ms total)
T3068 009:333 JLINK_ReadReg(R15 (PC))  returns 0x00004E00 (0000ms, 0651ms total)
T3068 009:333 JLINK_ReadReg(XPSR)  returns 0x01000000 (0000ms, 0651ms total)
T3068 009:333 JLINK_ReadReg(R0)  returns 0x4000E000 (0000ms, 0651ms total)
T3068 009:333 JLINK_ReadReg(R1)  returns 0x00000070 (0000ms, 0651ms total)
T3068 009:333 JLINK_ReadReg(R2)  returns 0x00000000 (0000ms, 0651ms total)
T3068 009:333 JLINK_ReadReg(R3)  returns 0x00000000 (0000ms, 0651ms total)
T3068 009:333 JLINK_ReadReg(R4)  returns 0x000112E4 (0000ms, 0651ms total)
T3068 009:333 JLINK_ReadReg(R5)  returns 0x000112E4 (0000ms, 0651ms total)
T3068 009:333 JLINK_ReadReg(R6)  returns 0x00000000 (0000ms, 0651ms total)
T3068 009:333 JLINK_ReadReg(R7)  returns 0x00000000 (0000ms, 0651ms total)
T3068 009:333 JLINK_ReadReg(R8)  returns 0x00000000 (0000ms, 0651ms total)
T3068 009:333 JLINK_ReadReg(R9)  returns 0x00000000 (0001ms, 0652ms total)
T3068 009:334 JLINK_ReadReg(R10)  returns 0x00000000 (0000ms, 0652ms total)
T3068 009:334 JLINK_ReadReg(R11)  returns 0x00000000 (0000ms, 0652ms total)
T3068 009:334 JLINK_ReadReg(R12)  returns 0x0000FF00 (0000ms, 0652ms total)
T3068 009:334 JLINK_ReadReg(R13 (SP))  returns 0x20003408 (0000ms, 0652ms total)
T3068 009:334 JLINK_ReadReg(R14)  returns 0x00004A17 (0000ms, 0652ms total)
T3068 009:334 JLINK_ReadReg(R15 (PC))  returns 0x00004E00 (0000ms, 0652ms total)
T3068 009:334 JLINK_ReadReg(XPSR)  returns 0x01000000 (0000ms, 0652ms total)
T3068 009:334 JLINK_ReadReg(MSP)  returns 0x20003408 (0000ms, 0652ms total)
T3068 009:334 JLINK_ReadReg(PSP)  returns 0x00000000 (0000ms, 0652ms total)
T3068 009:334 JLINK_ReadReg(CFBP)  returns 0x04000000 (0000ms, 0652ms total)
T3068 009:334 JLINK_ReadReg(FPSCR)  returns 0x00000000 (0000ms, 0652ms total)
T3068 009:334 JLINK_ReadReg(FPS0)  returns 0x000004E2 (0000ms, 0652ms total)
T3068 009:334 JLINK_ReadReg(FPS1)  returns 0x00000000 (0000ms, 0652ms total)
T3068 009:334 JLINK_ReadReg(FPS2)  returns 0x3FA00000 (0000ms, 0652ms total)
T3068 009:334 JLINK_ReadReg(FPS3)  returns 0x00000000 (0000ms, 0652ms total)
T3068 009:334 JLINK_ReadReg(FPS4)  returns 0x00000000 (0000ms, 0652ms total)
T3068 009:334 JLINK_ReadReg(FPS5)  returns 0x00000000 (0000ms, 0652ms total)
T3068 009:334 JLINK_ReadReg(FPS6)  returns 0x00000000 (0000ms, 0652ms total)
T3068 009:334 JLINK_ReadReg(FPS7)  returns 0x00000000 (0000ms, 0652ms total)
T3068 009:334 JLINK_ReadReg(FPS8)  returns 0x00000000 (0000ms, 0652ms total)
T3068 009:334 JLINK_ReadReg(FPS9)  returns 0x00000000 (0000ms, 0652ms total)
T3068 009:334 JLINK_ReadReg(FPS10)  returns 0x00000000 (0000ms, 0652ms total)
T3068 009:334 JLINK_ReadReg(FPS11)  returns 0x00000000 (0000ms, 0652ms total)
T3068 009:334 JLINK_ReadReg(FPS12)  returns 0x00000000 (0000ms, 0652ms total)
T3068 009:334 JLINK_ReadReg(FPS13)  returns 0x00000000 (0000ms, 0652ms total)
T3068 009:334 JLINK_ReadReg(FPS14)  returns 0x00000000 (0000ms, 0652ms total)
T3068 009:334 JLINK_ReadReg(FPS15)  returns 0x00000000 (0000ms, 0652ms total)
T3068 009:334 JLINK_ReadReg(FPS16)  returns 0x00000000 (0000ms, 0652ms total)
T3068 009:334 JLINK_ReadReg(FPS17)  returns 0x00000000 (0000ms, 0652ms total)
T3068 009:334 JLINK_ReadReg(FPS18)  returns 0x00000000 (0000ms, 0652ms total)
T3068 009:334 JLINK_ReadReg(FPS19)  returns 0x00000000 (0000ms, 0652ms total)
T3068 009:334 JLINK_ReadReg(FPS20)  returns 0x00000000 (0000ms, 0652ms total)
T3068 009:335 JLINK_ReadReg(FPS21)  returns 0x00000000 (0000ms, 0652ms total)
T3068 009:335 JLINK_ReadReg(FPS22)  returns 0x00000000 (0000ms, 0652ms total)
T3068 009:335 JLINK_ReadReg(FPS23)  returns 0x00000000 (0000ms, 0652ms total)
T3068 009:335 JLINK_ReadReg(FPS24)  returns 0x00000000 (0000ms, 0652ms total)
T3068 009:335 JLINK_ReadReg(FPS25)  returns 0x00000000 (0000ms, 0652ms total)
T3068 009:335 JLINK_ReadReg(FPS26)  returns 0x00000000 (0000ms, 0652ms total)
T3068 009:335 JLINK_ReadReg(FPS27)  returns 0x00000000 (0000ms, 0652ms total)
T3068 009:335 JLINK_ReadReg(FPS28)  returns 0x00000000 (0000ms, 0652ms total)
T3068 009:335 JLINK_ReadReg(FPS29)  returns 0x00000000 (0000ms, 0652ms total)
T3068 009:335 JLINK_ReadReg(FPS30)  returns 0x00000000 (0000ms, 0652ms total)
T3068 009:335 JLINK_ReadReg(FPS31)  returns 0x00000000 (0000ms, 0652ms total)
T2F64 009:338 JLINK_ReadMem (0x20001DC5, 0x000E Bytes, ...) -- Read from C cache (14 bytes @ 0x20001DC5) -- Data:  00 00 00 00 00 00 00 00 00 00 00 00 00 00  returns 0x00 (0000ms, 0652ms total)
T2F64 009:338 JLINK_ReadMem (0x2000021C, 0x0004 Bytes, ...) -- Read from C cache (4 bytes @ 0x2000021C) -- Data:  00 00 00 00  returns 0x00 (0000ms, 0652ms total)
T2F64 009:338 JLINK_ReadMem (0x200001F4, 0x0001 Bytes, ...) -- Read from C cache (1 bytes @ 0x200001F4) -- Data:  00  returns 0x00 (0000ms, 0652ms total)
T2F64 009:338 JLINK_ReadMem (0x200001F5, 0x0001 Bytes, ...) -- Read from C cache (1 bytes @ 0x200001F5) -- Data:  00  returns 0x00 (0000ms, 0652ms total)
T2F64 009:339 JLINK_ReadMem (0x200019C5, 0x0020 Bytes, ...) -- Read from C cache (32 bytes @ 0x200019C5) -- Data:  00 00 00 00 00 00 00 00 00 00 00 00 00 00 00 00 ...  returns 0x00 (0000ms, 0652ms total)
T2F64 009:339 JLINK_ReadMem (0x200002B6, 0x0002 Bytes, ...) -- Read from C cache (2 bytes @ 0x200002B6) -- Data:  00 00  returns 0x00 (0000ms, 0652ms total)
T2F64 009:339 JLINK_ReadMem (0x200001D8, 0x0001 Bytes, ...) -- Read from C cache (1 bytes @ 0x200001D8) -- Data:  00  returns 0x00 (0000ms, 0652ms total)
T2F64 009:344 JLINK_ReadMem (0x00004E00, 0x003C Bytes, ...) -- CPU_ReadMem(64 bytes @ 0x00004E00) -- Updating C cache (64 bytes @ 0x00004E00) -- Read from C cache (60 bytes @ 0x00004E00) -- Data:  3E B5 00 20 46 49 08 70 AA 20 8D F8 00 00 01 21 ...  returns 0x00 (0001ms, 0653ms total)
T2F64 009:374 JLINK_ReadMem (0x00004F02, 0x0002 Bytes, ...) -- CPU_ReadMem(64 bytes @ 0x00004F00) -- Updating C cache (64 bytes @ 0x00004F00) -- Read from C cache (2 bytes @ 0x00004F02) -- Data:  01 21  returns 0x00 (0001ms, 0654ms total)
T2F64 009:375 JLINK_ReadMem (0x00004F04, 0x003C Bytes, ...) -- Read from C cache (60 bytes @ 0x00004F04) -- Data:  68 46 00 F0 F9 FB 05 48 00 78 0A 28 01 D1 00 20 ...  returns 0x00 (0000ms, 0654ms total)
T3068 010:772 JLINK_Step() -- Read from C cache (2 bytes @ 0x00004E00) -- CPU_WriteMem(24 bytes @ 0x200033F0) -- Simulated  returns 0x00 (0001ms, 0655ms total)
T3068 010:773 JLINK_ReadReg(R15 (PC))  returns 0x00004E02 (0000ms, 0655ms total)
T3068 010:773 JLINK_ReadReg(XPSR)  returns 0x01000000 (0000ms, 0655ms total)
T3068 010:773 JLINK_ReadReg(R0)  returns 0x4000E000 (0000ms, 0655ms total)
T3068 010:773 JLINK_ReadReg(R1)  returns 0x00000070 (0000ms, 0655ms total)
T3068 010:773 JLINK_ReadReg(R2)  returns 0x00000000 (0000ms, 0655ms total)
T3068 010:773 JLINK_ReadReg(R3)  returns 0x00000000 (0000ms, 0655ms total)
T3068 010:773 JLINK_ReadReg(R4)  returns 0x000112E4 (0000ms, 0655ms total)
T3068 010:773 JLINK_ReadReg(R5)  returns 0x000112E4 (0000ms, 0655ms total)
T3068 010:773 JLINK_ReadReg(R6)  returns 0x00000000 (0000ms, 0655ms total)
T3068 010:773 JLINK_ReadReg(R7)  returns 0x00000000 (0000ms, 0655ms total)
T3068 010:773 JLINK_ReadReg(R8)  returns 0x00000000 (0000ms, 0655ms total)
T3068 010:773 JLINK_ReadReg(R9)  returns 0x00000000 (0001ms, 0656ms total)
T3068 010:774 JLINK_ReadReg(R10)  returns 0x00000000 (0000ms, 0656ms total)
T3068 010:774 JLINK_ReadReg(R11)  returns 0x00000000 (0000ms, 0656ms total)
T3068 010:774 JLINK_ReadReg(R12)  returns 0x0000FF00 (0000ms, 0656ms total)
T3068 010:774 JLINK_ReadReg(R13 (SP))  returns 0x200033F0 (0000ms, 0656ms total)
T3068 010:774 JLINK_ReadReg(R14)  returns 0x00004A17 (0000ms, 0656ms total)
T3068 010:774 JLINK_ReadReg(R15 (PC))  returns 0x00004E02 (0000ms, 0656ms total)
T3068 010:774 JLINK_ReadReg(XPSR)  returns 0x01000000 (0000ms, 0656ms total)
T3068 010:774 JLINK_ReadReg(MSP)  returns 0x200033F0 (0000ms, 0656ms total)
T3068 010:774 JLINK_ReadReg(PSP)  returns 0x00000000 (0000ms, 0656ms total)
T3068 010:774 JLINK_ReadReg(CFBP)  returns 0x04000000 (0000ms, 0656ms total)
T3068 010:774 JLINK_ReadReg(FPSCR)  returns 0x00000000 (0000ms, 0656ms total)
T3068 010:774 JLINK_ReadReg(FPS0)  returns 0x000004E2 (0000ms, 0656ms total)
T3068 010:774 JLINK_ReadReg(FPS1)  returns 0x00000000 (0000ms, 0656ms total)
T3068 010:774 JLINK_ReadReg(FPS2)  returns 0x3FA00000 (0000ms, 0656ms total)
T3068 010:774 JLINK_ReadReg(FPS3)  returns 0x00000000 (0000ms, 0656ms total)
T3068 010:774 JLINK_ReadReg(FPS4)  returns 0x00000000 (0000ms, 0656ms total)
T3068 010:774 JLINK_ReadReg(FPS5)  returns 0x00000000 (0000ms, 0656ms total)
T3068 010:774 JLINK_ReadReg(FPS6)  returns 0x00000000 (0000ms, 0656ms total)
T3068 010:774 JLINK_ReadReg(FPS7)  returns 0x00000000 (0000ms, 0656ms total)
T3068 010:774 JLINK_ReadReg(FPS8)  returns 0x00000000 (0000ms, 0656ms total)
T3068 010:774 JLINK_ReadReg(FPS9)  returns 0x00000000 (0000ms, 0656ms total)
T3068 010:774 JLINK_ReadReg(FPS10)  returns 0x00000000 (0000ms, 0656ms total)
T3068 010:774 JLINK_ReadReg(FPS11)  returns 0x00000000 (0000ms, 0656ms total)
T3068 010:774 JLINK_ReadReg(FPS12)  returns 0x00000000 (0000ms, 0656ms total)
T3068 010:774 JLINK_ReadReg(FPS13)  returns 0x00000000 (0000ms, 0656ms total)
T3068 010:774 JLINK_ReadReg(FPS14)  returns 0x00000000 (0000ms, 0656ms total)
T3068 010:774 JLINK_ReadReg(FPS15)  returns 0x00000000 (0000ms, 0656ms total)
T3068 010:774 JLINK_ReadReg(FPS16)  returns 0x00000000 (0000ms, 0656ms total)
T3068 010:774 JLINK_ReadReg(FPS17)  returns 0x00000000 (0000ms, 0656ms total)
T3068 010:774 JLINK_ReadReg(FPS18)  returns 0x00000000 (0000ms, 0656ms total)
T3068 010:774 JLINK_ReadReg(FPS19)  returns 0x00000000 (0000ms, 0656ms total)
T3068 010:774 JLINK_ReadReg(FPS20)  returns 0x00000000 (0000ms, 0656ms total)
T3068 010:774 JLINK_ReadReg(FPS21)  returns 0x00000000 (0001ms, 0657ms total)
T3068 010:775 JLINK_ReadReg(FPS22)  returns 0x00000000 (0000ms, 0657ms total)
T3068 010:775 JLINK_ReadReg(FPS23)  returns 0x00000000 (0000ms, 0657ms total)
T3068 010:775 JLINK_ReadReg(FPS24)  returns 0x00000000 (0000ms, 0657ms total)
T3068 010:775 JLINK_ReadReg(FPS25)  returns 0x00000000 (0000ms, 0657ms total)
T3068 010:775 JLINK_ReadReg(FPS26)  returns 0x00000000 (0000ms, 0657ms total)
T3068 010:775 JLINK_ReadReg(FPS27)  returns 0x00000000 (0000ms, 0657ms total)
T3068 010:775 JLINK_ReadReg(FPS28)  returns 0x00000000 (0000ms, 0657ms total)
T3068 010:775 JLINK_ReadReg(FPS29)  returns 0x00000000 (0000ms, 0657ms total)
T3068 010:775 JLINK_ReadReg(FPS30)  returns 0x00000000 (0000ms, 0657ms total)
T3068 010:775 JLINK_ReadReg(FPS31)  returns 0x00000000 (0000ms, 0657ms total)
T2F64 010:778 JLINK_ReadMem (0x20001DC5, 0x000E Bytes, ...) -- Read from C cache (14 bytes @ 0x20001DC5) -- Data:  00 00 00 00 00 00 00 00 00 00 00 00 00 00  returns 0x00 (0000ms, 0657ms total)
T2F64 010:778 JLINK_ReadMem (0x2000021C, 0x0004 Bytes, ...) -- Read from C cache (4 bytes @ 0x2000021C) -- Data:  00 00 00 00  returns 0x00 (0000ms, 0657ms total)
T2F64 010:778 JLINK_ReadMem (0x200001F4, 0x0001 Bytes, ...) -- Read from C cache (1 bytes @ 0x200001F4) -- Data:  00  returns 0x00 (0000ms, 0657ms total)
T2F64 010:778 JLINK_ReadMem (0x200001F5, 0x0001 Bytes, ...) -- Read from C cache (1 bytes @ 0x200001F5) -- Data:  00  returns 0x00 (0001ms, 0658ms total)
T2F64 010:779 JLINK_ReadMem (0x200019C5, 0x0020 Bytes, ...) -- Read from C cache (32 bytes @ 0x200019C5) -- Data:  00 00 00 00 00 00 00 00 00 00 00 00 00 00 00 00 ...  returns 0x00 (0000ms, 0658ms total)
T2F64 010:779 JLINK_ReadMem (0x200002B6, 0x0002 Bytes, ...) -- Read from C cache (2 bytes @ 0x200002B6) -- Data:  00 00  returns 0x00 (0001ms, 0659ms total)
T2F64 010:780 JLINK_ReadMem (0x200001D8, 0x0001 Bytes, ...) -- Read from C cache (1 bytes @ 0x200001D8) -- Data:  00  returns 0x00 (0000ms, 0659ms total)
T2F64 010:784 JLINK_ReadMem (0x00004E02, 0x0002 Bytes, ...) -- Read from C cache (2 bytes @ 0x00004E02) -- Data:  00 20  returns 0x00 (0000ms, 0659ms total)
T2F64 010:784 JLINK_ReadMem (0x00004E04, 0x003C Bytes, ...) -- Read from C cache (60 bytes @ 0x00004E04) -- Data:  46 49 08 70 AA 20 8D F8 00 00 01 21 68 46 00 F0 ...  returns 0x00 (0000ms, 0659ms total)
T2F64 011:518 JLINK_ReadMem (0x20003404, 0x0004 Bytes, ...) -- CPU_ReadMem(64 bytes @ 0x20003400) -- Updating C cache (64 bytes @ 0x20003400) -- Read from C cache (4 bytes @ 0x20003404) -- Data:  17 4A 00 00  returns 0x00 (0001ms, 0660ms total)
T3068 011:524 JLINK_SetBPEx(Addr = 0x00004A16, Type = 0xFFFFFFF2)  returns 0x00000004 (0000ms, 0660ms total)
T3068 011:524 JLINK_SetBPEx(Addr = 0x00004A12, Type = 0xFFFFFFF2)  returns 0x00000005 (0000ms, 0660ms total)
T3068 011:524 JLINK_Go() -- CPU_WriteMem(4 bytes @ 0xE0002000) -- CPU_WriteMem(4 bytes @ 0xE0002000) -- CPU_WriteMem(4 bytes @ 0xE0002008) -- CPU_WriteMem(4 bytes @ 0xE000200C) -- CPU_WriteMem(4 bytes @ 0xE0001004) (0004ms, 0664ms total)
T3068 011:629 JLINK_IsHalted()  returns FALSE (0000ms, 0664ms total)
T3068 011:730 JLINK_IsHalted()  returns FALSE (0000ms, 0664ms total)
T3068 011:831 JLINK_IsHalted()  returns FALSE (0000ms, 0664ms total)
T3068 011:932 JLINK_IsHalted()  returns FALSE (0000ms, 0664ms total)
T3068 012:034 JLINK_IsHalted()  returns FALSE (0000ms, 0664ms total)
T3068 012:135 JLINK_ReadMemU32(0xE0001004, 0x0001 Items, ...) -- CPU is running -- CPU_ReadMem(4 bytes @ 0xE0001004) -- Data:  22 EB A6 03  returns 0x01 (0000ms, 0664ms total)
T2F64 012:137 JLINK_ReadMem (0x20001DC5, 0x000E Bytes, ...) -- CPU is running -- CPU_ReadMem(14 bytes @ 0x20001DC5) -- Data:  00 00 00 00 00 00 00 00 00 00 00 00 00 00  returns 0x00 (0001ms, 0665ms total)
T2F64 012:138 JLINK_ReadMem (0x2000021C, 0x0004 Bytes, ...) -- CPU is running -- CPU_ReadMem(4 bytes @ 0x2000021C) -- Data:  00 00 00 00  returns 0x00 (0001ms, 0666ms total)
T2F64 012:139 JLINK_ReadMem (0x200001F4, 0x0001 Bytes, ...) -- CPU is running -- CPU_ReadMem(1 bytes @ 0x200001F4) -- Data:  00  returns 0x00 (0000ms, 0666ms total)
T2F64 012:139 JLINK_ReadMem (0x200001F5, 0x0001 Bytes, ...) -- CPU is running -- CPU_ReadMem(1 bytes @ 0x200001F5) -- Data:  00  returns 0x00 (0001ms, 0667ms total)
T2F64 012:141 JLINK_ReadMem (0x200019C5, 0x0020 Bytes, ...) -- CPU is running -- CPU_ReadMem(32 bytes @ 0x200019C5) -- Data:  00 00 00 00 00 00 00 00 00 00 00 00 00 00 00 00 ...  returns 0x00 (0002ms, 0669ms total)
T2F64 012:143 JLINK_ReadMem (0x200002B6, 0x0002 Bytes, ...) -- CPU is running -- CPU_ReadMem(2 bytes @ 0x200002B6) -- Data:  0B 00  returns 0x00 (0000ms, 0669ms total)
T2F64 012:143 JLINK_ReadMem (0x200001D8, 0x0001 Bytes, ...) -- CPU is running -- CPU_ReadMem(1 bytes @ 0x200001D8) -- Data:  00  returns 0x00 (0001ms, 0670ms total)
T3068 012:144 JLINK_IsHalted()  returns FALSE (0000ms, 0670ms total)
T3068 012:246 JLINK_IsHalted()  returns FALSE (0000ms, 0670ms total)
T3068 012:347 JLINK_IsHalted()  returns FALSE (0000ms, 0670ms total)
T3068 012:449 JLINK_IsHalted()  returns FALSE (0000ms, 0670ms total)
T3068 012:549 JLINK_IsHalted()  returns FALSE (0000ms, 0670ms total)
T3068 012:650 JLINK_ReadMemU32(0xE0001004, 0x0001 Items, ...) -- CPU is running -- CPU_ReadMem(4 bytes @ 0xE0001004) -- Data:  D6 1A 1C 06  returns 0x01 (0000ms, 0670ms total)
T2F64 012:652 JLINK_ReadMem (0x20001DC5, 0x000E Bytes, ...) -- CPU is running -- CPU_ReadMem(14 bytes @ 0x20001DC5) -- Data:  00 00 00 00 00 00 00 00 00 00 00 00 00 00  returns 0x00 (0001ms, 0671ms total)
T2F64 012:653 JLINK_ReadMem (0x2000021C, 0x0004 Bytes, ...) -- CPU is running -- CPU_ReadMem(4 bytes @ 0x2000021C) -- Data:  00 00 00 00  returns 0x00 (0001ms, 0672ms total)
T2F64 012:654 JLINK_ReadMem (0x200001F4, 0x0001 Bytes, ...) -- CPU is running -- CPU_ReadMem(1 bytes @ 0x200001F4) -- Data:  00  returns 0x00 (0000ms, 0672ms total)
T2F64 012:654 JLINK_ReadMem (0x200001F5, 0x0001 Bytes, ...) -- CPU is running -- CPU_ReadMem(1 bytes @ 0x200001F5) -- Data:  00  returns 0x00 (0001ms, 0673ms total)
T2F64 012:656 JLINK_ReadMem (0x200019C5, 0x0020 Bytes, ...) -- CPU is running -- CPU_ReadMem(32 bytes @ 0x200019C5) -- Data:  00 00 00 00 00 00 00 00 00 00 00 00 00 00 00 00 ...  returns 0x00 (0001ms, 0674ms total)
T2F64 012:658 JLINK_ReadMem (0x200002B6, 0x0002 Bytes, ...) -- CPU is running -- CPU_ReadMem(2 bytes @ 0x200002B6) -- Data:  0B 00  returns 0x00 (0000ms, 0674ms total)
T2F64 012:658 JLINK_ReadMem (0x200001D8, 0x0001 Bytes, ...) -- CPU is running -- CPU_ReadMem(1 bytes @ 0x200001D8) -- Data:  00  returns 0x00 (0001ms, 0675ms total)
T3068 012:659 JLINK_IsHalted()  returns FALSE (0000ms, 0675ms total)
T3068 012:761 JLINK_IsHalted()  returns FALSE (0000ms, 0675ms total)
T3068 012:862 JLINK_IsHalted()  returns FALSE (0000ms, 0675ms total)
T3068 012:962 JLINK_IsHalted()  returns FALSE (0000ms, 0675ms total)
T3068 013:063 JLINK_IsHalted()  returns FALSE (0000ms, 0675ms total)
T3068 013:164 JLINK_ReadMemU32(0xE0001004, 0x0001 Items, ...) -- CPU is running -- CPU_ReadMem(4 bytes @ 0xE0001004) -- Data:  69 27 8F 08  returns 0x01 (0001ms, 0676ms total)
T2F64 013:167 JLINK_ReadMem (0x20001DC5, 0x000E Bytes, ...) -- CPU is running -- CPU_ReadMem(14 bytes @ 0x20001DC5) -- Data:  00 00 00 00 00 00 00 00 00 00 00 00 00 00  returns 0x00 (0002ms, 0678ms total)
T2F64 013:169 JLINK_ReadMem (0x2000021C, 0x0004 Bytes, ...) -- CPU is running -- CPU_ReadMem(4 bytes @ 0x2000021C) -- Data:  00 00 00 00  returns 0x00 (0000ms, 0678ms total)
T2F64 013:169 JLINK_ReadMem (0x200001F4, 0x0001 Bytes, ...) -- CPU is running -- CPU_ReadMem(1 bytes @ 0x200001F4) -- Data:  00  returns 0x00 (0001ms, 0679ms total)
T2F64 013:170 JLINK_ReadMem (0x200001F5, 0x0001 Bytes, ...) -- CPU is running -- CPU_ReadMem(1 bytes @ 0x200001F5) -- Data:  00  returns 0x00 (0000ms, 0679ms total)
T2F64 013:172 JLINK_ReadMem (0x200019C5, 0x0020 Bytes, ...) -- CPU is running -- CPU_ReadMem(32 bytes @ 0x200019C5) -- Data:  00 00 00 00 00 00 00 00 00 00 00 00 00 00 00 00 ...  returns 0x00 (0001ms, 0680ms total)
T2F64 013:174 JLINK_ReadMem (0x200002B6, 0x0002 Bytes, ...) -- CPU is running -- CPU_ReadMem(2 bytes @ 0x200002B6) -- Data:  0B 00  returns 0x00 (0000ms, 0680ms total)
T2F64 013:174 JLINK_ReadMem (0x200001D8, 0x0001 Bytes, ...) -- CPU is running -- CPU_ReadMem(1 bytes @ 0x200001D8) -- Data:  00  returns 0x00 (0001ms, 0681ms total)
T3068 013:175 JLINK_IsHalted()  returns FALSE (0000ms, 0681ms total)
T3068 013:276 JLINK_IsHalted()  returns FALSE (0000ms, 0681ms total)
T3068 013:377 JLINK_IsHalted()  returns FALSE (0000ms, 0681ms total)
T3068 013:478 JLINK_IsHalted()  returns FALSE (0000ms, 0681ms total)
T3068 013:579 JLINK_IsHalted()  returns FALSE (0000ms, 0681ms total)
T3068 013:680 JLINK_ReadMemU32(0xE0001004, 0x0001 Items, ...) -- CPU is running -- CPU_ReadMem(4 bytes @ 0xE0001004) -- Data:  1F 7F 05 0B  returns 0x01 (0000ms, 0681ms total)
T2F64 013:682 JLINK_ReadMem (0x20001DC5, 0x000E Bytes, ...) -- CPU is running -- CPU_ReadMem(14 bytes @ 0x20001DC5) -- Data:  00 00 00 00 00 00 00 00 00 00 00 00 00 00  returns 0x00 (0002ms, 0683ms total)
T2F64 013:684 JLINK_ReadMem (0x2000021C, 0x0004 Bytes, ...) -- CPU is running -- CPU_ReadMem(4 bytes @ 0x2000021C) -- Data:  00 00 00 00  returns 0x00 (0000ms, 0683ms total)
T2F64 013:684 JLINK_ReadMem (0x200001F4, 0x0001 Bytes, ...) -- CPU is running -- CPU_ReadMem(1 bytes @ 0x200001F4) -- Data:  00  returns 0x00 (0001ms, 0684ms total)
T2F64 013:685 JLINK_ReadMem (0x200001F5, 0x0001 Bytes, ...) -- CPU is running -- CPU_ReadMem(1 bytes @ 0x200001F5) -- Data:  00  returns 0x00 (0001ms, 0685ms total)
T2F64 013:688 JLINK_ReadMem (0x200019C5, 0x0020 Bytes, ...) -- CPU is running -- CPU_ReadMem(32 bytes @ 0x200019C5) -- Data:  00 00 00 00 00 00 00 00 00 00 00 00 00 00 00 00 ...  returns 0x00 (0002ms, 0687ms total)
T2F64 013:690 JLINK_ReadMem (0x200002B6, 0x0002 Bytes, ...) -- CPU is running -- CPU_ReadMem(2 bytes @ 0x200002B6) -- Data:  0B 00  returns 0x00 (0000ms, 0687ms total)
T2F64 013:690 JLINK_ReadMem (0x200001D8, 0x0001 Bytes, ...) -- CPU is running -- CPU_ReadMem(1 bytes @ 0x200001D8) -- Data:  00  returns 0x00 (0001ms, 0688ms total)
T3068 013:691 JLINK_IsHalted()  returns FALSE (0000ms, 0688ms total)
T3068 013:792 JLINK_IsHalted()  returns FALSE (0000ms, 0688ms total)
T3068 013:893 JLINK_IsHalted()  returns FALSE (0000ms, 0688ms total)
T3068 013:994 JLINK_IsHalted()  returns FALSE (0000ms, 0688ms total)
T3068 014:096 JLINK_IsHalted()  returns FALSE (0000ms, 0688ms total)
T3068 014:197 JLINK_ReadMemU32(0xE0001004, 0x0001 Items, ...) -- CPU is running -- CPU_ReadMem(4 bytes @ 0xE0001004) -- Data:  90 F2 7B 0D  returns 0x01 (0000ms, 0688ms total)
T2F64 014:199 JLINK_ReadMem (0x20001DC5, 0x000E Bytes, ...) -- CPU is running -- CPU_ReadMem(14 bytes @ 0x20001DC5) -- Data:  00 00 00 00 00 00 00 00 00 00 00 00 00 00  returns 0x00 (0003ms, 0691ms total)
T2F64 014:202 JLINK_ReadMem (0x2000021C, 0x0004 Bytes, ...) -- CPU is running -- CPU_ReadMem(4 bytes @ 0x2000021C) -- Data:  00 00 00 00  returns 0x00 (0000ms, 0691ms total)
T2F64 014:202 JLINK_ReadMem (0x200001F4, 0x0001 Bytes, ...) -- CPU is running -- CPU_ReadMem(1 bytes @ 0x200001F4) -- Data:  00  returns 0x00 (0000ms, 0691ms total)
T2F64 014:202 JLINK_ReadMem (0x200001F5, 0x0001 Bytes, ...) -- CPU is running -- CPU_ReadMem(1 bytes @ 0x200001F5) -- Data:  00  returns 0x00 (0001ms, 0692ms total)
T2F64 014:205 JLINK_ReadMem (0x200019C5, 0x0020 Bytes, ...) -- CPU is running -- CPU_ReadMem(32 bytes @ 0x200019C5) -- Data:  00 00 00 00 00 00 00 00 00 00 00 00 00 00 00 00 ...  returns 0x00 (0001ms, 0693ms total)
T2F64 014:206 JLINK_ReadMem (0x200002B6, 0x0002 Bytes, ...) -- CPU is running -- CPU_ReadMem(2 bytes @ 0x200002B6) -- Data:  0B 00  returns 0x00 (0001ms, 0694ms total)
T2F64 014:207 JLINK_ReadMem (0x200001D8, 0x0001 Bytes, ...) -- CPU is running -- CPU_ReadMem(1 bytes @ 0x200001D8) -- Data:  00  returns 0x00 (0000ms, 0694ms total)
T3068 014:207 JLINK_IsHalted()  returns FALSE (0001ms, 0695ms total)
T3068 014:309 JLINK_IsHalted()  returns FALSE (0000ms, 0694ms total)
T3068 014:411 JLINK_IsHalted()  returns FALSE (0000ms, 0694ms total)
T3068 014:512 JLINK_IsHalted()  returns FALSE (0001ms, 0695ms total)
T3068 014:613 JLINK_IsHalted()  returns FALSE (0000ms, 0694ms total)
T3068 014:714 JLINK_ReadMemU32(0xE0001004, 0x0001 Items, ...) -- CPU is running -- CPU_ReadMem(4 bytes @ 0xE0001004) -- Data:  F6 6E F3 0F  returns 0x01 (0000ms, 0694ms total)
T2F64 014:717 JLINK_ReadMem (0x20001DC5, 0x000E Bytes, ...) -- CPU is running -- CPU_ReadMem(14 bytes @ 0x20001DC5) -- Data:  00 00 00 00 00 00 00 00 00 00 00 00 00 00  returns 0x00 (0001ms, 0695ms total)
